#  HZ   S   DB   R     50.00 
! Rohde & Schwarz Vector Network Analyzer 
! Rohde-Schwarz,ZNL14-2Port,1323001214101034,1.40.1.1-21.04.2.40
! Created: UTC 11/13/2024, 2:26:04 PM
! freq[Hz]                db:S11                  ang:S11                 db:S21                  ang:S21                 db:S12                  ang:S12                 db:S22                  ang:S22
 5.000000000000000E3    -1.304690252184645E-3    3.004576075564798E-2   -8.038721319108984E1     4.511694069648998E1    -8.135621274242584E1     1.051539759189447E2     9.493669524694982E-3   -8.377614514606885E-3
 3.049995000000000E5     2.329971728316250E-1    2.198480970440184E-2   -8.293196941813724E1    -1.781141052070342E2    -8.300448352445838E1     9.753848200410897E1     1.610390929287487E-1   -8.954313720467476E-2
 6.049990000000000E5    -4.731433891508654E-3   -1.207812324422974E-1   -8.157721393848880E1     1.430704785842067E2    -8.953109803537323E1    -5.941767917091038E1    -4.168999505399327E-2   -1.297090153000628E-1
 9.049985000000000E5    -1.464468991904203E-3   -1.841641884476202E-1   -7.754266405591484E1     1.599848015141230E2    -8.958781233000992E1     1.613715454653525E2     2.971428641286683E-3   -2.058414278951455E-1
 1.204998000000000E6    -2.398095360669671E-3   -2.393435821578274E-1   -1.111167640541878E2     1.053111831748885      -7.969002105962950E1     1.184849848563564E2     6.423427426026036E-3   -2.573795831001144E-1
 1.504997500000000E6     3.700352813601096E-3   -3.001277360275736E-1   -9.415482393311888E1     1.417074839232184E2    -9.038300850653681E1     1.555813515173621E2     6.179513460200587E-3   -3.287335679103543E-1
 1.804997000000000E6    -9.033619692390568E-4   -3.819071177160085E-1   -7.957728115670992E1     7.957832491677718E1    -8.506514798662297E1     2.974937872065889E1     3.718811688069812E-3   -3.890706440514258E-1
 2.104996500000000E6     4.166932140301650E-3   -4.303386054202732E-1   -7.722765083593342E1     8.072763252024301E1    -7.492484042255863E1     1.197258758136438E2     1.878672376688776E-3   -4.606001585285687E-1
 2.404996000000000E6     1.193826849251220E-3   -5.094576774612047E-1   -7.764918922872754E1     1.183305299362770E2    -8.709723146895188E1     1.048825794004559E2     3.642604767084643E-3   -5.197397109904934E-1
 2.704995500000000E6     6.092526326691691E-2   -7.146814942004734E-1   -5.470991719607352E1     1.623922467812996E1    -5.555528754210860E1     5.504010998050583E1     5.937478015680873E-2   -3.153946183259787E-1
 3.004995000000000E6    -1.816550236246506E-3   -6.195532313674945E-1   -7.164720352291801E1     4.058645928384558E1    -7.494940020951033E1     1.102359866990196E2     2.638642318334594E-3   -6.296509646759971E-1
 3.304994500000000E6     8.241457855028042E-4   -6.952240499525011E-1   -6.807590220687381E1     4.773891429322052E1    -8.450061471309375E1     4.689723637197297E1     5.288299558401008E-4   -6.842152907084560E-1
 3.604994000000000E6     1.809290183257055E-3   -7.615379598377974E-1   -7.056000567987263E1     3.546786677791287E1    -7.295305371005372E1     7.527753565013946E1    -2.249598879124667E-3   -7.531718458565373E-1
 3.904993500000000E6     7.577348998858304E-3   -8.102775817950337E-1   -6.915235675215581E1     5.351844216190755E1    -7.240031250139209E1     8.964606167684602E1    -1.477909036381077E-3   -8.212867672659055E-1
 4.204993000000000E6    -3.591372333774284E-3   -8.984605853516703E-1   -6.908898980844592E1     1.107930992713226E2    -7.169598719441827E1     6.401560355974438E1    -1.675512943188372E-3   -9.247878697588270E-1
 4.504992500000000E6     1.495950403818483E-3   -9.333364936053274E-1   -7.020518806687181E1     1.092433995476719E2    -6.993328317889238E1     1.138730108142167E2     1.395395957991983E-3   -9.705558400657899E-1
 4.804992000000000E6     6.902086653164742E-3   -1.018942675557009      -6.875448338865978E1     1.130134590158485E2    -6.905714430577105E1     8.905121923308873E1     2.642904439369992E-3   -1.040667578346570
 5.104991500000000E6     4.324153413094209E-3   -1.080476510051489      -6.747155624792852E1     5.592958552196478E1    -7.149353374791977E1     1.077440984583780E2    -4.591654129816224E-3   -1.095492212496099
 5.404991000000000E6    -3.122237540857818E-3   -1.136874494739361      -7.664427066757850E1     7.037393704353626E1    -6.883979916895841E1     8.324369498998821E1    -2.197917018078847E-3   -1.137081841775293
 5.704990500000000E6     2.052605124505601E-3   -1.200235549974291      -6.940892646634734E1     6.257850426561925E1    -6.834850389436932E1     8.866966228356158E1    -3.171668710608162E-3   -1.201528805668783
 6.004990000000000E6     3.355173440896264E-3   -1.280778317117624      -6.888270875436856E1     9.609449309143316E1    -7.020672006349062E1     8.950361289692100E1    -3.088138336415120E-3   -1.283905114793424
 6.304989500000000E6     2.253534984958413E-3   -1.315047204370854      -7.168999533249942E1     1.373378791609713E2    -6.913105584691935E1     7.810397736223806E1    -1.276934516495630E-3   -1.328124735520561
 6.604989000000000E6    -1.390598035425360E-3   -1.377398082176475      -6.964895887639730E1     9.832043119092907E1    -6.621608494117700E1     8.299657683506769E1    -4.034938756866530E-3   -1.399854363093152
 6.904988500000000E6     2.526488296739514E-3   -1.451256946008978      -6.577993305666587E1     5.023385711186197E1    -6.638726902767976E1     6.978842153405705E1     3.161353869261550E-4   -1.495628081588209
 7.204988000000000E6     9.953312641176840E-3   -1.510108341449981      -6.479327498408639E1     9.425327302588225E1    -6.881199877820301E1     8.771258178960235E1    -6.677065211191810E-3   -1.505394709357392
 7.504987500000000E6     4.868799094670836E-3   -1.614026707700506      -6.765546248421322E1     8.359354387728698E1    -6.735505905752667E1     7.923845853838918E1    -3.177723646285888E-3   -1.586887683046190
 7.804987000000000E6     1.540752269549177E-3   -1.664596753897098      -6.347441782040113E1     7.715885685092974E1    -6.800196051925420E1     8.450595353942934E1    -4.752351245277459E-3   -1.643552207169295
 8.104986500000000E6     1.639988072233405E-3   -1.722339292795033      -6.929298499418661E1     8.765367926030031E1    -6.640530206507799E1     6.881513310137653E1    -5.618939592310260E-3   -1.706136852904556
 8.404986000000000E6     1.275494204185205E-3   -1.777887254165165      -6.594181543473759E1     6.259497268136771E1    -6.559585477855987E1     9.195037291642086E1    -4.669810639113110E-3   -1.787341545581672
 8.704985500000000E6     1.226980901254501E-3   -1.854484787659652      -6.621690769371392E1     8.415524502755001E1    -6.634876874428895E1     8.827570458656038E1    -2.793929830668178E-3   -1.860576793154650
 9.004985000000000E6     1.982342199923895E-3   -1.905931258140615      -7.035413192727697E1     1.028665636235202E2    -6.663361726414456E1     9.109730955512032E1    -2.772853803407780E-3   -1.908996887367712
 9.304984500000000E6     5.894469747730661E-3   -1.987927197015272      -6.369783215401738E1     8.186614152809258E1    -6.511687487262992E1     8.778591913943806E1    -4.766132620307675E-3   -1.949264093669934
 9.604984000000000E6     1.617634149450503E-3   -2.049834822280955      -6.522140961024360E1     7.654388529867940E1    -6.554131600254243E1     8.440959765078686E1    -2.655922379769010E-3   -2.011908159319612
 9.904983500000000E6     5.055875398170035E-4   -2.101664783378062      -6.585274425879736E1     7.784902515733741E1    -6.394329074019394E1     8.999335571585151E1    -2.446935480898262E-3   -2.082685514849026
 1.020498300000000E7     4.007535268567309E-3   -2.160871002532552      -6.614704205562464E1     1.022470465885863E2    -6.536837422652729E1     9.073617486507975E1    -3.729014551051407E-3   -2.147385784390536
 1.050498250000000E7     4.909972829602724E-3   -2.242499486050983      -6.728732163243619E1     1.006730141983186E2    -6.560288317575332E1     9.169059081269424E1    -4.498174638376983E-3   -2.224630176637192
 1.080498200000000E7     4.601396138636787E-3   -2.305887135462937      -6.334022270905820E1     8.440554282550220E1    -6.386446215175889E1     8.557859004366711E1    -2.722426591604426E-3   -2.263887573184263
 1.110498150000000E7     3.190224257121415E-3   -2.389088981465746      -6.228727028034025E1     9.924133663476749E1    -6.386997148274959E1     8.767764742614408E1    -4.353430108058658E-3   -2.319356861159893
 1.140498100000000E7     1.412744132216068E-3   -2.428327156341012      -6.750292019046475E1     1.040885652860531E2    -6.400964146359782E1     8.463246222906638E1    -3.231404099966148E-3   -2.417982850347530
 1.170498050000000E7     1.324401784125278E-3   -2.498347412100255      -6.150570532009380E1     6.879070370429903E1    -6.330357090295618E1     8.411263987272383E1    -2.042888872416528E-3   -2.458852545434257
 1.200498000000000E7    -9.615208641041678E-4   -2.561277075204956      -6.384834323387278E1     8.479445363572721E1    -6.348541957375579E1     7.933512665517758E1    -4.534789983498363E-3   -2.526236293798480
 1.230497950000000E7    -2.236763810581926E-4   -2.631642038560604      -6.361600774698174E1     7.299414793923314E1    -6.380853093679160E1     9.192433677471435E1     2.327255025005011E-4   -2.594495382593201
 1.260497900000000E7    -3.222433741629055E-4   -2.675037515137781      -6.283648142677453E1     8.472983065473338E1    -6.335262629945980E1     8.718420991701781E1    -3.344123852195034E-3   -2.659532540325756
 1.290497850000000E7    -2.591183227638234E-3   -2.753445947111736      -6.203293229566329E1     9.609382684916179E1    -6.191758289362093E1     9.213131303921952E1    -2.731876222467258E-3   -2.734481486993577
 1.320497800000000E7     1.226569820468890E-3   -2.825269496628824      -6.302780282780691E1     7.680436933128952E1    -6.331367808947058E1     8.727100439303653E1    -2.695363055928206E-3   -2.781544812966901
 1.350497750000000E7    -1.372928464512877E-3   -2.874808741615698      -6.184817732172785E1     8.545031527473259E1    -6.200321872456048E1     8.277139844261552E1    -3.363068405577391E-3   -2.843157353682409
 1.380497700000000E7     1.251152411406029E-3   -2.949604006086388      -6.165079294217955E1     8.559148064076348E1    -6.175210642571183E1     9.102721158281213E1    -4.588576600764933E-3   -2.927736068986863
 1.410497650000000E7    -8.375188785524309E-4   -3.023165702520278      -6.271763508809773E1     9.744008198903828E1    -6.230884114914999E1     7.796218179511128E1    -5.294674338670725E-3   -2.989877369767163
 1.440497600000000E7     1.980611981215471E-3   -3.091059935025076      -6.115801283385591E1     8.799722485817529E1    -6.244228089452496E1     9.063118469220349E1    -1.915341267385534E-3   -3.027450969645384
 1.470497550000000E7    -1.160619763120686E-3   -3.156494432666029      -6.203038477946681E1     8.176315493193893E1    -6.171041318720333E1     8.958796871113560E1     9.686398372276750E-4   -3.105100689864854
 1.500497500000000E7     6.449978569877969E-4   -3.217671589392361      -6.200675818364424E1     7.163605169140115E1    -6.157276868660923E1     8.653195059224748E1     1.880904985904332E-4   -3.161837050273312
 1.530497450000000E7    -1.402369188649296E-3   -3.267202314138179      -6.123957500730378E1     9.588910744404299E1    -6.144483735474367E1     9.023937910272114E1    -1.643707012568973E-3   -3.213774133992546
 1.560497400000000E7    -3.470828559262086E-4   -3.363810436642793      -6.306497781432807E1     7.766614612597729E1    -6.153723569401404E1     8.774825927558506E1    -2.692636280134040E-3   -3.288020182913271
 1.590497350000000E7     1.455018245562047E-3   -3.400990826904403      -6.014713338732765E1     9.366320192633054E1    -6.086798320034764E1     8.563912781634379E1    -2.623581564914780E-3   -3.367273076685574
 1.620497300000000E7    -5.732310649000663E-6   -3.470919083713103      -6.203225457060619E1     8.306130370537612E1    -6.062940966898887E1     8.542323347195260E1    -2.394770038105387E-3   -3.396705825707333
 1.650497250000000E7    -5.742298051343688E-4   -3.519569698336790      -6.055051981381556E1     9.172566249061795E1    -5.965774023841117E1     8.604348328443133E1     6.424239748893023E-6   -3.484478607108587
 1.680497200000000E7    -1.503563971531444E-3   -3.598247172701535      -5.990761584397877E1     8.358180560183810E1    -6.045255047550859E1     8.186093651766538E1    -4.643323512182345E-3   -3.518487046145079
 1.710497150000000E7    -1.577275263872905E-3   -3.676415258859088      -6.065030141354111E1     9.403282163781596E1    -6.034385930730693E1     8.658664032776744E1    -8.478587050294924E-4   -3.594618973871596
 1.740497100000000E7    -5.443154899254374E-3   -3.769886110137070      -6.014594324243706E1     8.768579528312829E1    -6.035012035624251E1     8.314541019025633E1     3.438605998990159E-3   -3.659603892034877
 1.770497050000000E7    -1.718514717783308E-3   -3.785036884598113      -5.980126109035855E1     9.123147610807618E1    -5.904162133268567E1     8.362336721605563E1    -5.167976628346879E-4   -3.715031897590770
 1.800497000000000E7    -4.367624568187329E-4   -3.874641241609531      -5.992400615463585E1     8.642599552924268E1    -6.031925194784952E1     8.387617031895672E1    -3.506505508042108E-3   -3.820547243822456
 1.830496950000000E7    -2.092609670587973E-3   -3.937760493164945      -6.001894659346058E1     7.795696670112984E1    -6.022590872849055E1     8.568066230880206E1    -2.420385627767976E-3   -3.819555034197822
 1.860496900000000E7    -5.592988529296301E-4   -3.998067102760335      -6.019770419338787E1     7.958667473267333E1    -5.973409527202728E1     8.346281563691639E1    -1.729794591136856E-3   -3.904477363289321
 1.890496850000000E7    -1.993124363316753E-3   -4.074122762752054      -5.959080836743200E1     7.615858029581358E1    -5.913789544310957E1     8.951813040498830E1    -3.661085134740366E-3   -3.985924419230428
 1.920496800000000E7    -2.631510288645215E-3   -4.118766699984278      -5.831504899753344E1     8.009714636572937E1    -5.900790942027534E1     8.550053120319564E1     2.332492206379813E-3   -4.027612743669368
 1.950496750000000E7    -1.970449632225909E-4   -4.203264850559780      -5.761392390399651E1     8.584293166575421E1    -5.890131822842064E1     8.502880745094573E1    -1.080874397625327E-3   -4.091119428030027
 1.980496700000000E7     6.639868435465997E-4   -4.246780130927411      -5.858299402260181E1     8.672082682488616E1    -5.942184151819011E1     8.728899217923663E1    -5.291813123379464E-4   -4.158530561472571
 2.010496650000000E7     3.878403171448783E-3   -4.377611939563224      -5.917851913691534E1     8.801336583893524E1    -5.821112462361022E1     8.831705705093772E1    -8.820090224883935E-3   -4.176883611002062
 2.040496600000000E7    -7.447808040296107E-4   -4.391651944099175      -5.850179194709118E1     7.577485475607922E1    -5.853487330680547E1     8.566839134678861E1    -1.262953632803047E-3   -4.261018378106580
 2.070496550000000E7    -2.057134333524952E-3   -4.451581316685195      -5.995992278710187E1     7.496312774320208E1    -5.892478919502591E1     8.681735785255033E1    -2.962568390496341E-3   -4.323809926443274
 2.100496500000000E7    -6.474822655653450E-4   -4.523410095338480      -5.811865224477685E1     9.063316542245603E1    -5.838449661481742E1     8.298503201416045E1    -1.470771724324248E-3   -4.411505686404296
 2.130496450000000E7    -4.785567192701108E-4   -4.584263862293427      -5.847427817955128E1     8.868774489123265E1    -5.840179738414525E1     8.257945731061437E1    -3.407336584840385E-3   -4.452161581899283
 2.160496400000000E7    -2.070795148484692E-3   -4.624119540255292      -5.803423918193792E1     8.310235923427075E1    -5.799580643012039E1     8.750498700325626E1     8.740480293447422E-4   -4.550259695776819
 2.190496350000000E7    -9.984029637417672E-4   -4.709460519345818      -5.765804149806075E1     8.714121873892607E1    -5.806594463302808E1     8.517400558546419E1    -4.942524781721388E-3   -4.603367806041710
 2.220496300000000E7    -3.090285456384706E-3   -4.788021252757348      -5.776382047114669E1     8.602884301804285E1    -5.786140418166569E1     8.232502135592144E1     2.892290517459847E-3   -4.660943121535849
 2.250496250000000E7     6.838726326448752E-6   -4.855896742809747      -5.792505827271697E1     8.073085347424627E1    -5.757882510476492E1     8.603381682744435E1    -4.253292228650231E-3   -4.734900293242441
 2.280496200000000E7    -9.689634678330354E-4   -4.894167257335749      -5.852043708418280E1     8.196628669558748E1    -5.829555329230188E1     8.914764904914783E1    -2.554899704109027E-3   -4.771597104835145
 2.310496150000000E7    -5.006681072828238E-3   -4.966791695783699      -5.720161462224315E1     8.534604643720411E1    -5.756347058394255E1     8.679095672232260E1    -3.169437698011725E-4   -4.825473725863250
 2.340496100000000E7    -2.396522631771231E-3   -5.043484000654498      -5.663083409157417E1     7.907948855159459E1    -5.764839812381493E1     8.455262525468865E1    -1.154242737675793E-3   -4.926033444605648
 2.370496050000000E7    -2.233581748551723E-3   -5.102721209432913      -5.676969130834323E1     8.560388871680523E1    -5.787996332387749E1     8.667672449332116E1    -1.735228812863954E-4   -4.972605338648822
 2.400496000000000E7    -4.392088856073488E-3   -5.171864694429864      -5.721902268721905E1     8.342329391419402E1    -5.751358586750720E1     8.385347267991227E1     4.606406021662242E-4   -5.021929900059181
 2.430495950000000E7    -2.228182343522502E-3   -5.243754850105803      -5.775312304594726E1     8.306536655534101E1    -5.722039866083946E1     8.250279929146576E1     7.509938849681354E-4   -5.095783227073830
 2.460495900000000E7    -2.110697262607557E-3   -5.309423986480830      -5.739569010936269E1     8.778041930210570E1    -5.698567336917428E1     8.384788400162672E1    -2.860271044717695E-3   -5.154418591528192
 2.490495850000000E7    -3.460047534272716E-3   -5.361237830144859      -5.652990712623495E1     8.513093613516668E1    -5.663206311443087E1     8.231945259286204E1     1.510439884042180E-3   -5.221855811166101
 2.520495800000000E7     2.047515989496600E-3   -5.423563605092010      -5.670921059108898E1     8.484469395537373E1    -5.682431698736481E1     8.477482529245243E1    -1.058397453862149E-3   -5.273869205796261
 2.550495750000000E7    -2.102164310840906E-3   -5.501905248503892      -5.738533100960382E1     8.773194615713430E1    -5.700338362896091E1     8.414022802913179E1     1.483511245605588E-3   -5.349425851966152
 2.580495700000000E7    -1.157323637980131E-3   -5.560433523049181      -5.601795177583990E1     7.655530541302286E1    -5.673708304228536E1     8.537003843508953E1     3.893545159132668E-4   -5.402853004385820
 2.610495650000000E7    -5.463366956727575E-4   -5.626547917737847      -5.584986176934418E1     8.059625104312967E1    -5.661909826132927E1     8.073069332007557E1    -6.870942912207583E-4   -5.455106284768889
 2.640495600000000E7    -1.763852349055052E-3   -5.689555440712782      -5.660933177073745E1     8.521712622822744E1    -5.684914428080292E1     8.543075200744687E1    -3.825434629781033E-3   -5.506749577266540
 2.670495550000000E7    -1.618160045429224E-3   -5.749853723789212      -5.636808665957120E1     8.234786087685934E1    -5.616686463439849E1     8.739218320028688E1    -2.765653658290377E-3   -5.566870088990750
 2.700495500000000E7    -2.724115654225985E-3   -5.842155442507352      -5.610706407380903E1     8.558812412766601E1    -5.619534008235529E1     8.317346631734704E1    -1.702902905433942E-3   -5.648426697094416
 2.730495450000000E7    -4.297859229820005E-3   -5.883377231761324      -5.632197237023224E1     8.556458565354303E1    -5.615103170444289E1     8.380151729512359E1     1.747192678793845E-3   -5.712799479347460
